
T305C 000:070 SEGGER J-Link V4.58a Log File (0001ms, 0071ms total)
T305C 000:070 DLL Compiled: Dec  5 2012 18:38:08 (0001ms, 0071ms total)
T305C 000:070 Logging started @ 2017-08-17 22:34 (0001ms, 0071ms total)
T305C 000:071 JLINK_SetWarnOutHandler(...) (0000ms, 0071ms total)
T305C 000:071 JLINK_OpenEx(...)
Firmware: J-Link ARM V7 compiled Jun 20 2012 19:45:53
Hardware: V7.00
S/N: 19087980
Feature(s): RDI, FlashDL, FlashBP, JFlash, GDBFull  returns O.K. (0030ms, 0101ms total)
T305C 000:101 JLINK_SetErrorOutHandler(...) (0000ms, 0101ms total)
T305C 000:101 JLINK_ExecCommand("ProjectFile = "C:\Users\anchor\Desktop\stm32\实时操作系统的移植\Project\RVMDK（uv5）\JLinkSettings.ini"", ...)  returns 0x00 (0000ms, 0101ms total)
T305C 000:114 JLINK_ExecCommand("Device = STM32F103VE", ...)
                JLINK_ExecCommand("map ram 0x20000000 - 0x2000FFFF", ...)  returns 0x00 (0000ms, 0001ms total)
                JLINK_AddMirrorAreaEx(Addr = 0x00000000, Size = 0x00000000) (0000ms, 0001ms total)
              Device "STM32F103VE" selected (512 KB flash, 64 KB RAM).  returns 0x00 (0025ms, 0126ms total)
T305C 000:139 JLINK_ExecCommand("DisableConnectionTimeout", ...)  returns 0x00 (0000ms, 0126ms total)
T305C 000:139 JLINK_GetHardwareVersion()  returns 0x11170 (0000ms, 0126ms total)
T305C 000:139 JLINK_GetDLLVersion()  returns 45801 (0000ms, 0126ms total)
T305C 000:139 JLINK_GetFirmwareString(...) (0000ms, 0126ms total)
T305C 000:155 JLINK_GetDLLVersion()  returns 45801 (0000ms, 0126ms total)
T305C 000:155 JLINK_GetCompileDateTime() (0000ms, 0126ms total)
T305C 000:161 JLINK_GetFirmwareString(...) (0000ms, 0126ms total)
T305C 000:164 JLINK_GetHardwareVersion()  returns 0x11170 (0000ms, 0126ms total)
T305C 000:188 JLINK_TIF_Select(JLINKARM_TIF_JTAG)  returns 0x00 (0000ms, 0126ms total)
T305C 000:188 JLINK_SetSpeed(2000) (0000ms, 0126ms total)
T305C 000:188 JLINK_GetIdData(...) >0x2F8 JTAG>TotalIRLen = 9, IRPrint = 0x0011 >0x30 JTAG> >0x210 JTAG> >0x40 JTAG> >0x40 JTAG> >0x40 JTAG> >0x30 JTAG> >0x40 JTAG> >0x40 JTAG> >0x40 JTAG> >0x40 JTAG> >0x40 JTAG> >0x40 JTAG> >0x40 JTAG> >0x40 JTAG> >0x2F8 JTAG>TotalIRLen = 9, IRPrint = 0x0011 >0x30 JTAG> >0x210 JTAG> >0x80 JTAG> >0x40 JTAG> >0x40 JTAG> >0x50 JTAG> >0x40 JTAG> >0x40 JTAG> >0x40 JTAG> >0x50 JTAG> >0x40 JTAG> >0x40 JTAG> >0x40 JTAG> >0x30 JTAG> >0x40 JTAG> >0x50 JTAG> >0x40 JTAG>
 >0x38 JTAG> >0x80 JTAG> >0x40 JTAG> >0x40 JTAG> >0x50 JTAG> >0x40 JTAG> >0x40 JTAG> >0x40 JTAG> >0x50 JTAG> >0x40 JTAG> >0x40 JTAG> >0x30 JTAG> >0x40 JTAG> >0x40 JTAG> >0x40 JTAG> >0x40 JTAG> >0x40 JTAG> >0x50 JTAG> >0x40 JTAG> >0x80 JTAG> >0x40 JTAG> >0x30 JTAG> >0x40 JTAG> >0x40 JTAG> >0x40 JTAG> >0x40 JTAG> >0x40 JTAG> >0x50 JTAG> >0x40 JTAG> >0x80 JTAG> >0x40 JTAG> >0x30 JTAG> >0x40 JTAG> >0x50 JTAG> >0x40 JTAG> >0x40 JTAG> >0x40 JTAG> >0x30 JTAG> >0x40 JTAG> >0x50 JTAG> >0x40 JTAG>
Found Cortex-M3 r1p1, Little endian. >0x50 JTAG> >0x50 JTAG> >0x40 JTAG> >0x40 JTAG> >0x30 JTAG> >0x30 JTAG> >0x50 JTAG> >0x40 JTAG> >0x80 JTAG> >0x40 JTAG> >0x30 JTAG> >0x40 JTAG> >0x50 JTAG> >0x40 JTAG> >0x40 JTAG> >0x40 JTAG> >0x30 JTAG> >0x40 JTAG> >0x50 JTAG> >0x40 JTAG>TPIU fitted. >0x40 JTAG> >0x40 JTAG> >0x30 JTAG> >0x40 JTAG> >0x50 JTAG> >0x40 JTAG>ETM fitted. >0x40 JTAG> >0x40 JTAG> >0x30 JTAG> >0x40 JTAG> >0x50 JTAG> >0x40 JTAG> >0x40 JTAG> >0x40 JTAG> >0x30 JTAG> >0x40 JTAG> >0x50 JTAG>
 >0x40 JTAG>FPUnit: 6 code (BP) slots and 2 literal slots >0x40 JTAG> >0x40 JTAG> >0x30 JTAG> >0x40 JTAG> >0x50 JTAG> >0x40 JTAG> >0x40 JTAG> >0x40 JTAG> >0x30 JTAG> >0x40 JTAG> >0x50 JTAG> >0x40 JTAG> >0x40 JTAG> >0x40 JTAG> >0x30 JTAG> >0x30 JTAG> >0x50 JTAG> >0x40 JTAG> ScanLen=9 NumDevices=2 aId[0]=0x3BA00477 aIrRead[0]=0 aScanLen[0]=0 aScanRead[0]=0 (0068ms, 0194ms total)
T305C 000:256 JLINK_JTAG_GetDeviceID(DeviceIndex = 0)  returns 0x3BA00477 (0000ms, 0194ms total)
T305C 000:256 JLINK_JTAG_GetDeviceInfo(DeviceIndex = 0)  returns 0x00 (0000ms, 0194ms total)
T305C 000:256 JLINK_JTAG_GetDeviceID(DeviceIndex = 1)  returns 0x6414041 (0000ms, 0194ms total)
T305C 000:256 JLINK_JTAG_GetDeviceInfo(DeviceIndex = 1)  returns 0x00 (0000ms, 0194ms total)
T305C 000:256 JLINK_GetDeviceFamily()  returns 3 (0000ms, 0194ms total)
T305C 000:260 JLINK_ReadMem (0xE00FFFF0, 0x0010 Bytes, ...) -- CPU is running >0x2F0 JTAG> -- Data:  0D 00 00 00 10 00 00 00 05 00 00 00 B1 00 00 00  returns 0x00 (0001ms, 0195ms total)
T305C 000:261 JLINK_ReadMem (0xE00FFFD0, 0x0020 Bytes, ...) -- CPU is running >0x398 JTAG> -- Data:  00 00 00 00 00 00 00 00 00 00 00 00 00 00 00 00 ...  returns 0x00 (0001ms, 0196ms total)
T305C 000:262 JLINK_ReadMem (0xE00FF000, 0x0018 Bytes, ...) -- CPU is running >0x320 JTAG> -- Data:  03 F0 F0 FF 03 20 F0 FF 03 30 F0 FF 03 10 F0 FF ...  returns 0x00 (0001ms, 0197ms total)
T305C 000:263 JLINK_ReadMemU32(0xE000ED00, 0x0001 Items, ...) -- CPU is running >0x1F0 JTAG> -- Data:  31 C2 1F 41  returns 0x01 (0001ms, 0198ms total)
T305C 000:264 JLINK_SetResetType(JLINKARM_RESET_TYPE_NORMAL)  returns JLINKARM_RESET_TYPE_NORMAL (0000ms, 0198ms total)
T305C 000:264 JLINK_Reset() >0x38 JTAG> >0x80 JTAG> >0x40 JTAG> >0x40 JTAG> >0x50 JTAG> >0x40 JTAG> >0x40 JTAG> >0x40 JTAG> >0x50 JTAG> >0x40 JTAG> >0x40 JTAG> >0x30 JTAG> >0x40 JTAG> >0x40 JTAG> >0x40 JTAG> >0x40 JTAG> >0x40 JTAG> >0x50 JTAG> >0x40 JTAG> >0x80 JTAG> >0x40 JTAG> >0x30 JTAG> >0x40 JTAG> >0x40 JTAG> >0x40 JTAG> >0x40 JTAG> >0x40 JTAG> >0x50 JTAG> >0x40 JTAG> >0x80 JTAG> >0x40 JTAG> >0x30 JTAG> >0x40 JTAG> >0x50 JTAG> >0x40 JTAG> >0x40 JTAG> >0x40 JTAG> >0x30 JTAG> >0x40 JTAG> >0x50 JTAG>
 >0x40 JTAG>Found Cortex-M3 r1p1, Little endian. >0x50 JTAG> >0x50 JTAG> >0x40 JTAG> >0x40 JTAG> >0x30 JTAG> >0x30 JTAG> >0x50 JTAG> >0x40 JTAG> >0x80 JTAG> >0x40 JTAG> >0x30 JTAG> >0x40 JTAG> >0x50 JTAG> >0x40 JTAG> >0x40 JTAG> >0x40 JTAG> >0x30 JTAG> >0x40 JTAG> >0x50 JTAG> >0x40 JTAG>TPIU fitted. >0x40 JTAG> >0x40 JTAG> >0x30 JTAG> >0x40 JTAG> >0x50 JTAG> >0x40 JTAG>ETM fitted. >0x40 JTAG> >0x40 JTAG> >0x30 JTAG> >0x40 JTAG> >0x50 JTAG> >0x40 JTAG> >0x40 JTAG> >0x40 JTAG> >0x30 JTAG> >0x40 JTAG>
 >0x50 JTAG> >0x40 JTAG>FPUnit: 6 code (BP) slots and 2 literal slots >0x40 JTAG> >0x40 JTAG> >0x30 JTAG> >0x40 JTAG> >0x50 JTAG> >0x40 JTAG> >0x40 JTAG> >0x40 JTAG> >0x30 JTAG> >0x40 JTAG> >0x50 JTAG> >0x40 JTAG> >0x40 JTAG> >0x40 JTAG> >0x30 JTAG> >0x30 JTAG> >0x50 JTAG> >0x40 JTAG> -- CPU is running >0x240 JTAG> -- CPU is running >0x1F0 JTAG> -- CPU is running >0x230 JTAG> -- CPU is running >0x1F0 JTAG> -- CPU is running >0x1F0 JTAG> -- CPU is running >0x1F0 JTAG> -- CPU is running >0x1F0 JTAG>
 -- CPU is running >0x1F0 JTAG> >0x198 JTAG> >0x17A8 JTAG> >0x40 JTAG> >0x40 JTAG> >0x30 JTAG> >0x40 JTAG> >0x50 JTAG> >0x40 JTAG> >0x1F0 JTAG> >0x1F0 JTAG> >0x1F0 JTAG> >0x1F0 JTAG> >0x1F0 JTAG> >0x1F0 JTAG> (0081ms, 0279ms total)
T305C 000:345 JLINK_Halt()  returns 0x00 (0000ms, 0279ms total)
T305C 000:345 JLINK_IsHalted()  returns TRUE (0000ms, 0279ms total)
T305C 000:345 JLINK_ReadMemU32(0xE000EDF0, 0x0001 Items, ...) >0x1F0 JTAG> -- Data:  03 00 03 00  returns 0x01 (0001ms, 0280ms total)
T305C 000:346 JLINK_WriteU32(0xE000EDF0, 0xA05F0003) >0x1F0 JTAG>  returns 0x00 (0001ms, 0281ms total)
T305C 000:347 JLINK_WriteU32(0xE000EDFC, 0x01000000) >0x1F0 JTAG>  returns 0x00 (0001ms, 0282ms total)
T305C 000:368 JLINK_GetHWStatus(...)  returns 0x00 (0000ms, 0282ms total)
T305C 000:385 JLINK_GetNumBPUnits(Type = 0xFFFFFF00)  returns 0x06 (0000ms, 0282ms total)
T305C 000:385 JLINK_GetNumBPUnits(Type = 0xF0)  returns 0x2000 (0000ms, 0282ms total)
T305C 000:385 JLINK_GetNumWPUnits()  returns 0x04 (0000ms, 0282ms total)
T305C 000:402 JLINK_GetSpeed()  returns 0x7D0 (0000ms, 0282ms total)
T305C 000:415 JLINK_ReadMemU32(0xE000E004, 0x0001 Items, ...) >0x1F0 JTAG> -- Data:  01 00 00 00  returns 0x01 (0001ms, 0283ms total)
T305C 000:416 JLINK_ReadMemU32(0xE000E004, 0x0001 Items, ...) >0x1F0 JTAG> -- Data:  01 00 00 00  returns 0x01 (0001ms, 0284ms total)
T305C 000:417 JLINK_WriteMem(0xE0001000, 0x001C Bytes, ...) -- Data:  01 00 00 00 00 00 00 00 00 00 00 00 00 00 00 00 ... >0x310 JTAG>  returns 0x1C (0001ms, 0285ms total)
T305C 000:418 JLINK_ReadMem (0xE0001000, 0x001C Bytes, ...) >0x358 JTAG> -- Data:  01 00 00 40 00 00 00 00 00 00 00 00 00 00 00 00 ...  returns 0x00 (0001ms, 0286ms total)
T305C 000:419 JLINK_Halt()  returns 0x00 (0000ms, 0286ms total)
T305C 000:419 JLINK_IsHalted()  returns TRUE (0000ms, 0286ms total)
T305C 000:425 JLINK_WriteMem(0x20000000, 0x0164 Bytes, ...) -- Data:  00 BE 0A E0 0D 78 2D 06 68 40 08 24 40 00 00 D3 ... >0x1270 JTAG>  returns 0x164 (0004ms, 0290ms total)
T305C 000:429 JLINK_WriteReg(R0, 0x08000000)  returns 0x00 (0000ms, 0290ms total)
T305C 000:429 JLINK_WriteReg(R1, 0x007A1200)  returns 0x00 (0000ms, 0290ms total)
T305C 000:429 JLINK_WriteReg(R2, 0x00000001)  returns 0x00 (0000ms, 0290ms total)
T305C 000:429 JLINK_WriteReg(R3, 0x00000000)  returns 0x00 (0000ms, 0290ms total)
T305C 000:429 JLINK_WriteReg(R4, 0x00000000)  returns 0x00 (0000ms, 0290ms total)
T305C 000:429 JLINK_WriteReg(R5, 0x00000000)  returns 0x00 (0000ms, 0290ms total)
T305C 000:429 JLINK_WriteReg(R6, 0x00000000)  returns 0x00 (0000ms, 0290ms total)
T305C 000:429 JLINK_WriteReg(R7, 0x00000000)  returns 0x00 (0000ms, 0290ms total)
T305C 000:429 JLINK_WriteReg(R8, 0x00000000)  returns 0x00 (0000ms, 0290ms total)
T305C 000:429 JLINK_WriteReg(R9, 0x20000160)  returns 0x00 (0000ms, 0290ms total)
T305C 000:429 JLINK_WriteReg(R10, 0x00000000)  returns 0x00 (0000ms, 0290ms total)
T305C 000:429 JLINK_WriteReg(R11, 0x00000000)  returns 0x00 (0000ms, 0290ms total)
T305C 000:429 JLINK_WriteReg(R12, 0x00000000)  returns 0x00 (0001ms, 0291ms total)
T305C 000:430 JLINK_WriteReg(R13, 0x20001000)  returns 0x00 (0000ms, 0291ms total)
T305C 000:430 JLINK_WriteReg(R14, 0x20000001)  returns 0x00 (0000ms, 0291ms total)
T305C 000:430 JLINK_WriteReg(R15, 0x20000038)  returns 0x00 (0000ms, 0291ms total)
T305C 000:430 JLINK_WriteReg(XPSR, 0x01000000)  returns 0x00 (0000ms, 0291ms total)
T305C 000:430 JLINK_WriteReg(MSP, 0x20001000)  returns 0x00 (0000ms, 0291ms total)
T305C 000:430 JLINK_WriteReg(PSP, 0x20001000)  returns 0x00 (0000ms, 0291ms total)
T305C 000:430 JLINK_WriteReg(CFBP, 0x00000000)  returns 0x00 (0000ms, 0291ms total)
T305C 000:430 JLINK_SetBPEx(Addr = 0x20000000, Type = 0xFFFFFFF2) >0x1F0 JTAG>  returns 0x00000001 (0001ms, 0292ms total)
T305C 000:431 JLINK_Go() >0x1F0 JTAG> >0x1F0 JTAG> >0x1F0 JTAG> >0x1F0 JTAG> >0x1F0 JTAG> >0x1F0 JTAG> >0x1F0 JTAG> >0x310 JTAG> >0x218 JTAG> >0x218 JTAG> >0x218 JTAG> >0x218 JTAG> >0x218 JTAG> >0x218 JTAG> >0x218 JTAG> >0x218 JTAG> >0x218 JTAG> >0x218 JTAG> >0x218 JTAG> >0x218 JTAG> >0x218 JTAG> >0x240 JTAG> >0x240 JTAG> (0017ms, 0309ms total)
T305C 000:448 JLINK_IsHalted() >0x198 JTAG> >0x17A8 JTAG> >0x1F0 JTAG>  returns TRUE (0006ms, 0315ms total)
T305C 000:454 JLINK_ReadReg(R15)  returns 0x20000000 (0000ms, 0309ms total)
T305C 000:454 JLINK_ClrBPEx(BPHandle = 0x00000001)  returns 0x00 (0000ms, 0309ms total)
T305C 000:454 JLINK_ReadReg(R0)  returns 0x00000000 (0000ms, 0309ms total)
T305C 000:455 JLINK_WriteReg(R0, 0x08000000)  returns 0x00 (0000ms, 0309ms total)
T305C 000:455 JLINK_WriteReg(R1, 0x007A1200)  returns 0x00 (0000ms, 0309ms total)
T305C 000:455 JLINK_WriteReg(R2, 0x00000001)  returns 0x00 (0000ms, 0309ms total)
T305C 000:455 JLINK_WriteReg(R3, 0x00000000)  returns 0x00 (0000ms, 0309ms total)
T305C 000:455 JLINK_WriteReg(R4, 0x00000000)  returns 0x00 (0000ms, 0309ms total)
T305C 000:455 JLINK_WriteReg(R5, 0x00000000)  returns 0x00 (0000ms, 0309ms total)
T305C 000:455 JLINK_WriteReg(R6, 0x00000000)  returns 0x00 (0000ms, 0309ms total)
T305C 000:455 JLINK_WriteReg(R7, 0x00000000)  returns 0x00 (0000ms, 0309ms total)
T305C 000:455 JLINK_WriteReg(R8, 0x00000000)  returns 0x00 (0000ms, 0309ms total)
T305C 000:455 JLINK_WriteReg(R9, 0x20000160)  returns 0x00 (0000ms, 0309ms total)
T305C 000:455 JLINK_WriteReg(R10, 0x00000000)  returns 0x00 (0000ms, 0309ms total)
T305C 000:455 JLINK_WriteReg(R11, 0x00000000)  returns 0x00 (0000ms, 0309ms total)
T305C 000:455 JLINK_WriteReg(R12, 0x00000000)  returns 0x00 (0001ms, 0310ms total)
T305C 000:456 JLINK_WriteReg(R13, 0x20001000)  returns 0x00 (0000ms, 0310ms total)
T305C 000:456 JLINK_WriteReg(R14, 0x20000001)  returns 0x00 (0000ms, 0310ms total)
T305C 000:456 JLINK_WriteReg(R15, 0x2000007C)  returns 0x00 (0000ms, 0310ms total)
T305C 000:456 JLINK_WriteReg(XPSR, 0x01000000)  returns 0x00 (0000ms, 0310ms total)
T305C 000:456 JLINK_WriteReg(MSP, 0x20001000)  returns 0x00 (0000ms, 0310ms total)
T305C 000:456 JLINK_WriteReg(PSP, 0x20001000)  returns 0x00 (0000ms, 0310ms total)
T305C 000:456 JLINK_WriteReg(CFBP, 0x00000000)  returns 0x00 (0000ms, 0310ms total)
T305C 000:456 JLINK_SetBPEx(Addr = 0x20000000, Type = 0xFFFFFFF2)  returns 0x00000002 (0000ms, 0310ms total)
T305C 000:456 JLINK_Go() >0x310 JTAG> >0x218 JTAG> >0x218 JTAG> >0x218 JTAG> >0x240 JTAG> >0x240 JTAG> (0005ms, 0315ms total)
T305C 000:461 JLINK_IsHalted() >0x198 JTAG>  returns FALSE (0000ms, 0315ms total)
T305C 000:569 JLINK_IsHalted() >0x198 JTAG> >0x17A8 JTAG> >0x1F0 JTAG>  returns TRUE (0006ms, 0321ms total)
T305C 000:575 JLINK_ReadReg(R15)  returns 0x20000000 (0000ms, 0315ms total)
T305C 000:575 JLINK_ClrBPEx(BPHandle = 0x00000002)  returns 0x00 (0000ms, 0315ms total)
T305C 000:575 JLINK_ReadReg(R0)  returns 0x00000000 (0000ms, 0315ms total)
T305C 000:629 JLINK_WriteReg(R0, 0x00000001)  returns 0x00 (0000ms, 0315ms total)
T305C 000:629 JLINK_WriteReg(R1, 0x007A1200)  returns 0x00 (0000ms, 0315ms total)
T305C 000:629 JLINK_WriteReg(R2, 0x00000001)  returns 0x00 (0000ms, 0315ms total)
T305C 000:629 JLINK_WriteReg(R3, 0x00000000)  returns 0x00 (0000ms, 0315ms total)
T305C 000:629 JLINK_WriteReg(R4, 0x00000000)  returns 0x00 (0000ms, 0315ms total)
T305C 000:629 JLINK_WriteReg(R5, 0x00000000)  returns 0x00 (0000ms, 0315ms total)
T305C 000:629 JLINK_WriteReg(R6, 0x00000000)  returns 0x00 (0001ms, 0316ms total)
T305C 000:630 JLINK_WriteReg(R7, 0x00000000)  returns 0x00 (0000ms, 0316ms total)
T305C 000:630 JLINK_WriteReg(R8, 0x00000000)  returns 0x00 (0000ms, 0316ms total)
T305C 000:630 JLINK_WriteReg(R9, 0x20000160)  returns 0x00 (0000ms, 0316ms total)
T305C 000:630 JLINK_WriteReg(R10, 0x00000000)  returns 0x00 (0000ms, 0316ms total)
T305C 000:630 JLINK_WriteReg(R11, 0x00000000)  returns 0x00 (0000ms, 0316ms total)
T305C 000:630 JLINK_WriteReg(R12, 0x00000000)  returns 0x00 (0000ms, 0316ms total)
T305C 000:630 JLINK_WriteReg(R13, 0x20001000)  returns 0x00 (0000ms, 0316ms total)
T305C 000:630 JLINK_WriteReg(R14, 0x20000001)  returns 0x00 (0000ms, 0316ms total)
T305C 000:630 JLINK_WriteReg(R15, 0x2000006A)  returns 0x00 (0000ms, 0316ms total)
T305C 000:630 JLINK_WriteReg(XPSR, 0x01000000)  returns 0x00 (0000ms, 0316ms total)
T305C 000:630 JLINK_WriteReg(MSP, 0x20001000)  returns 0x00 (0000ms, 0316ms total)
T305C 000:630 JLINK_WriteReg(PSP, 0x20001000)  returns 0x00 (0000ms, 0316ms total)
T305C 000:630 JLINK_WriteReg(CFBP, 0x00000000)  returns 0x00 (0000ms, 0316ms total)
T305C 000:630 JLINK_SetBPEx(Addr = 0x20000000, Type = 0xFFFFFFF2)  returns 0x00000003 (0000ms, 0316ms total)
T305C 000:630 JLINK_Go() >0x310 JTAG> >0x218 JTAG> >0x218 JTAG> >0x218 JTAG> >0x240 JTAG> >0x240 JTAG> (0005ms, 0321ms total)
T305C 000:635 JLINK_IsHalted() >0x198 JTAG> >0x17A8 JTAG> >0x1F0 JTAG>  returns TRUE (0007ms, 0328ms total)
T305C 000:642 JLINK_ReadReg(R15)  returns 0x20000000 (0000ms, 0321ms total)
T305C 000:642 JLINK_ClrBPEx(BPHandle = 0x00000003)  returns 0x00 (0000ms, 0321ms total)
T305C 000:642 JLINK_ReadReg(R0)  returns 0x00000000 (0000ms, 0321ms total)
T305C 000:655 JLINK_WriteMem(0x20000000, 0x0164 Bytes, ...) -- Data:  00 BE 0A E0 0D 78 2D 06 68 40 08 24 40 00 00 D3 ... >0x1270 JTAG>  returns 0x164 (0004ms, 0325ms total)
T305C 000:659 JLINK_WriteReg(R0, 0x08000000)  returns 0x00 (0000ms, 0325ms total)
T305C 000:659 JLINK_WriteReg(R1, 0x007A1200)  returns 0x00 (0000ms, 0325ms total)
T305C 000:659 JLINK_WriteReg(R2, 0x00000002)  returns 0x00 (0000ms, 0325ms total)
T305C 000:659 JLINK_WriteReg(R3, 0x00000000)  returns 0x00 (0000ms, 0325ms total)
T305C 000:659 JLINK_WriteReg(R4, 0x00000000)  returns 0x00 (0000ms, 0325ms total)
T305C 000:659 JLINK_WriteReg(R5, 0x00000000)  returns 0x00 (0000ms, 0325ms total)
T305C 000:659 JLINK_WriteReg(R6, 0x00000000)  returns 0x00 (0001ms, 0326ms total)
T305C 000:660 JLINK_WriteReg(R7, 0x00000000)  returns 0x00 (0000ms, 0326ms total)
T305C 000:660 JLINK_WriteReg(R8, 0x00000000)  returns 0x00 (0000ms, 0326ms total)
T305C 000:660 JLINK_WriteReg(R9, 0x20000160)  returns 0x00 (0000ms, 0326ms total)
T305C 000:660 JLINK_WriteReg(R10, 0x00000000)  returns 0x00 (0000ms, 0326ms total)
T305C 000:660 JLINK_WriteReg(R11, 0x00000000)  returns 0x00 (0000ms, 0326ms total)
T305C 000:660 JLINK_WriteReg(R12, 0x00000000)  returns 0x00 (0000ms, 0326ms total)
T305C 000:660 JLINK_WriteReg(R13, 0x20001000)  returns 0x00 (0000ms, 0326ms total)
T305C 000:660 JLINK_WriteReg(R14, 0x20000001)  returns 0x00 (0000ms, 0326ms total)
T305C 000:660 JLINK_WriteReg(R15, 0x20000038)  returns 0x00 (0000ms, 0326ms total)
T305C 000:660 JLINK_WriteReg(XPSR, 0x01000000)  returns 0x00 (0000ms, 0326ms total)
T305C 000:660 JLINK_WriteReg(MSP, 0x20001000)  returns 0x00 (0000ms, 0326ms total)
T305C 000:660 JLINK_WriteReg(PSP, 0x20001000)  returns 0x00 (0000ms, 0326ms total)
T305C 000:660 JLINK_WriteReg(CFBP, 0x00000000)  returns 0x00 (0000ms, 0326ms total)
T305C 000:660 JLINK_SetBPEx(Addr = 0x20000000, Type = 0xFFFFFFF2) >0x1F0 JTAG>  returns 0x00000004 (0001ms, 0327ms total)
T305C 000:661 JLINK_Go() >0x1F0 JTAG> >0x310 JTAG> >0x218 JTAG> >0x218 JTAG> >0x218 JTAG> >0x218 JTAG> >0x240 JTAG> >0x240 JTAG> (0006ms, 0333ms total)
T305C 000:667 JLINK_IsHalted() >0x198 JTAG> >0x17A8 JTAG> >0x1F0 JTAG>  returns TRUE (0007ms, 0340ms total)
T305C 000:674 JLINK_ReadReg(R15)  returns 0x20000000 (0000ms, 0333ms total)
T305C 000:674 JLINK_ClrBPEx(BPHandle = 0x00000004)  returns 0x00 (0000ms, 0333ms total)
T305C 000:674 JLINK_ReadReg(R0)  returns 0x00000000 (0000ms, 0333ms total)
T305C 000:675 JLINK_WriteMem(0x20000164, 0x0400 Bytes, ...) -- Data:  88 A8 00 20 45 01 00 08 37 09 00 08 C9 07 00 08 ... >0x31C0 JTAG>  returns 0x400 (0010ms, 0343ms total)
T305C 000:685 JLINK_WriteReg(R0, 0x08000000)  returns 0x00 (0000ms, 0343ms total)
T305C 000:685 JLINK_WriteReg(R1, 0x00000400)  returns 0x00 (0000ms, 0343ms total)
T305C 000:685 JLINK_WriteReg(R2, 0x20000164)  returns 0x00 (0001ms, 0344ms total)
T305C 000:686 JLINK_WriteReg(R3, 0x00000000)  returns 0x00 (0000ms, 0344ms total)
T305C 000:686 JLINK_WriteReg(R4, 0x00000000)  returns 0x00 (0000ms, 0344ms total)
T305C 000:686 JLINK_WriteReg(R5, 0x00000000)  returns 0x00 (0000ms, 0344ms total)
T305C 000:686 JLINK_WriteReg(R6, 0x00000000)  returns 0x00 (0000ms, 0344ms total)
T305C 000:686 JLINK_WriteReg(R7, 0x00000000)  returns 0x00 (0000ms, 0344ms total)
T305C 000:686 JLINK_WriteReg(R8, 0x00000000)  returns 0x00 (0000ms, 0344ms total)
T305C 000:686 JLINK_WriteReg(R9, 0x20000160)  returns 0x00 (0000ms, 0344ms total)
T305C 000:686 JLINK_WriteReg(R10, 0x00000000)  returns 0x00 (0000ms, 0344ms total)
T305C 000:686 JLINK_WriteReg(R11, 0x00000000)  returns 0x00 (0000ms, 0344ms total)
T305C 000:686 JLINK_WriteReg(R12, 0x00000000)  returns 0x00 (0000ms, 0344ms total)
T305C 000:686 JLINK_WriteReg(R13, 0x20001000)  returns 0x00 (0000ms, 0344ms total)
T305C 000:686 JLINK_WriteReg(R14, 0x20000001)  returns 0x00 (0000ms, 0344ms total)
T305C 000:686 JLINK_WriteReg(R15, 0x200000F4)  returns 0x00 (0000ms, 0344ms total)
T305C 000:686 JLINK_WriteReg(XPSR, 0x01000000)  returns 0x00 (0000ms, 0344ms total)
T305C 000:686 JLINK_WriteReg(MSP, 0x20001000)  returns 0x00 (0001ms, 0345ms total)
T305C 000:687 JLINK_WriteReg(PSP, 0x20001000)  returns 0x00 (0000ms, 0345ms total)
T305C 000:687 JLINK_WriteReg(CFBP, 0x00000000)  returns 0x00 (0000ms, 0345ms total)
T305C 000:687 JLINK_SetBPEx(Addr = 0x20000000, Type = 0xFFFFFFF2)  returns 0x00000005 (0000ms, 0345ms total)
T305C 000:687 JLINK_Go() >0x310 JTAG> >0x218 JTAG> >0x218 JTAG> >0x218 JTAG> >0x218 JTAG> >0x218 JTAG> >0x240 JTAG> >0x240 JTAG> (0006ms, 0351ms total)
T305C 000:693 JLINK_IsHalted() >0x198 JTAG>  returns FALSE (0001ms, 0352ms total)
T305C 000:762 JLINK_IsHalted() >0x198 JTAG> >0x17A8 JTAG> >0x1F0 JTAG>  returns TRUE (0006ms, 0357ms total)
T305C 000:768 JLINK_ReadReg(R15)  returns 0x20000000 (0001ms, 0352ms total)
T305C 000:769 JLINK_ClrBPEx(BPHandle = 0x00000005)  returns 0x00 (0000ms, 0352ms total)
T305C 000:769 JLINK_ReadReg(R0)  returns 0x00000000 (0000ms, 0352ms total)
T305C 000:769 JLINK_WriteMem(0x20000164, 0x0400 Bytes, ...) -- Data:  74 00 00 00 64 03 00 20 0C 01 00 20 00 B5 85 B0 ... >0x31C0 JTAG>  returns 0x400 (0011ms, 0363ms total)
T305C 000:780 JLINK_WriteReg(R0, 0x08000400)  returns 0x00 (0000ms, 0363ms total)
T305C 000:780 JLINK_WriteReg(R1, 0x00000400)  returns 0x00 (0000ms, 0363ms total)
T305C 000:780 JLINK_WriteReg(R2, 0x20000164)  returns 0x00 (0000ms, 0363ms total)
T305C 000:780 JLINK_WriteReg(R3, 0x00000000)  returns 0x00 (0000ms, 0363ms total)
T305C 000:780 JLINK_WriteReg(R4, 0x00000000)  returns 0x00 (0000ms, 0363ms total)
T305C 000:780 JLINK_WriteReg(R5, 0x00000000)  returns 0x00 (0000ms, 0363ms total)
T305C 000:780 JLINK_WriteReg(R6, 0x00000000)  returns 0x00 (0000ms, 0363ms total)
T305C 000:780 JLINK_WriteReg(R7, 0x00000000)  returns 0x00 (0000ms, 0363ms total)
T305C 000:781 JLINK_WriteReg(R8, 0x00000000)  returns 0x00 (0000ms, 0364ms total)
T305C 000:781 JLINK_WriteReg(R9, 0x20000160)  returns 0x00 (0000ms, 0364ms total)
T305C 000:781 JLINK_WriteReg(R10, 0x00000000)  returns 0x00 (0000ms, 0364ms total)
T305C 000:781 JLINK_WriteReg(R11, 0x00000000)  returns 0x00 (0000ms, 0364ms total)
T305C 000:781 JLINK_WriteReg(R12, 0x00000000)  returns 0x00 (0000ms, 0364ms total)
T305C 000:781 JLINK_WriteReg(R13, 0x20001000)  returns 0x00 (0000ms, 0364ms total)
T305C 000:781 JLINK_WriteReg(R14, 0x20000001)  returns 0x00 (0000ms, 0364ms total)
T305C 000:781 JLINK_WriteReg(R15, 0x200000F4)  returns 0x00 (0000ms, 0364ms total)
T305C 000:781 JLINK_WriteReg(XPSR, 0x01000000)  returns 0x00 (0000ms, 0364ms total)
T305C 000:781 JLINK_WriteReg(MSP, 0x20001000)  returns 0x00 (0000ms, 0364ms total)
T305C 000:781 JLINK_WriteReg(PSP, 0x20001000)  returns 0x00 (0000ms, 0364ms total)
T305C 000:781 JLINK_WriteReg(CFBP, 0x00000000)  returns 0x00 (0000ms, 0364ms total)
T305C 000:781 JLINK_SetBPEx(Addr = 0x20000000, Type = 0xFFFFFFF2)  returns 0x00000006 (0000ms, 0364ms total)
T305C 000:781 JLINK_Go() >0x310 JTAG> >0x218 JTAG> >0x218 JTAG> >0x218 JTAG> >0x218 JTAG> >0x218 JTAG> >0x240 JTAG> >0x240 JTAG> (0007ms, 0371ms total)
T305C 000:788 JLINK_IsHalted() >0x198 JTAG>  returns FALSE (0000ms, 0371ms total)
T305C 000:794 JLINK_IsHalted() >0x198 JTAG>  returns FALSE (0000ms, 0371ms total)
T305C 000:802 JLINK_IsHalted() >0x198 JTAG>  returns FALSE (0000ms, 0371ms total)
T305C 000:804 JLINK_IsHalted() >0x198 JTAG>  returns FALSE (0000ms, 0371ms total)
T305C 000:806 JLINK_IsHalted() >0x198 JTAG>  returns FALSE (0001ms, 0372ms total)
T305C 000:818 JLINK_IsHalted() >0x198 JTAG> >0x17A8 JTAG> >0x1F0 JTAG>  returns TRUE (0006ms, 0377ms total)
T305C 000:824 JLINK_ReadReg(R15)  returns 0x20000000 (0000ms, 0371ms total)
T305C 000:825 JLINK_ClrBPEx(BPHandle = 0x00000006)  returns 0x00 (0000ms, 0372ms total)
T305C 000:825 JLINK_ReadReg(R0)  returns 0x00000000 (0000ms, 0372ms total)
T305C 000:826 JLINK_WriteMem(0x20000164, 0x0400 Bytes, ...) -- Data:  10 20 8D F8 03 00 03 20 8D F8 02 00 69 46 0D 48 ... >0x31C0 JTAG>  returns 0x400 (0011ms, 0383ms total)
T305C 000:837 JLINK_WriteReg(R0, 0x08000800)  returns 0x00 (0000ms, 0383ms total)
T305C 000:837 JLINK_WriteReg(R1, 0x00000400)  returns 0x00 (0000ms, 0383ms total)
T305C 000:837 JLINK_WriteReg(R2, 0x20000164)  returns 0x00 (0000ms, 0383ms total)
T305C 000:837 JLINK_WriteReg(R3, 0x00000000)  returns 0x00 (0000ms, 0383ms total)
T305C 000:837 JLINK_WriteReg(R4, 0x00000000)  returns 0x00 (0000ms, 0383ms total)
T305C 000:837 JLINK_WriteReg(R5, 0x00000000)  returns 0x00 (0000ms, 0383ms total)
T305C 000:837 JLINK_WriteReg(R6, 0x00000000)  returns 0x00 (0000ms, 0383ms total)
T305C 000:837 JLINK_WriteReg(R7, 0x00000000)  returns 0x00 (0000ms, 0383ms total)
T305C 000:837 JLINK_WriteReg(R8, 0x00000000)  returns 0x00 (0000ms, 0383ms total)
T305C 000:837 JLINK_WriteReg(R9, 0x20000160)  returns 0x00 (0000ms, 0383ms total)
T305C 000:837 JLINK_WriteReg(R10, 0x00000000)  returns 0x00 (0000ms, 0383ms total)
T305C 000:837 JLINK_WriteReg(R11, 0x00000000)  returns 0x00 (0000ms, 0383ms total)
T305C 000:837 JLINK_WriteReg(R12, 0x00000000)  returns 0x00 (0000ms, 0383ms total)
T305C 000:837 JLINK_WriteReg(R13, 0x20001000)  returns 0x00 (0001ms, 0384ms total)
T305C 000:838 JLINK_WriteReg(R14, 0x20000001)  returns 0x00 (0000ms, 0384ms total)
T305C 000:838 JLINK_WriteReg(R15, 0x200000F4)  returns 0x00 (0000ms, 0384ms total)
T305C 000:838 JLINK_WriteReg(XPSR, 0x01000000)  returns 0x00 (0000ms, 0384ms total)
T305C 000:838 JLINK_WriteReg(MSP, 0x20001000)  returns 0x00 (0000ms, 0384ms total)
T305C 000:838 JLINK_WriteReg(PSP, 0x20001000)  returns 0x00 (0000ms, 0384ms total)
T305C 000:838 JLINK_WriteReg(CFBP, 0x00000000)  returns 0x00 (0000ms, 0384ms total)
T305C 000:838 JLINK_SetBPEx(Addr = 0x20000000, Type = 0xFFFFFFF2)  returns 0x00000007 (0000ms, 0384ms total)
T305C 000:838 JLINK_Go() >0x310 JTAG> >0x218 JTAG> >0x218 JTAG> >0x218 JTAG> >0x218 JTAG> >0x218 JTAG> >0x240 JTAG> >0x240 JTAG> (0006ms, 0390ms total)
T305C 000:844 JLINK_IsHalted() >0x198 JTAG>  returns FALSE (0001ms, 0391ms total)
T305C 000:880 JLINK_IsHalted() >0x198 JTAG> >0x17A8 JTAG> >0x1F0 JTAG>  returns TRUE (0006ms, 0396ms total)
T305C 000:886 JLINK_ReadReg(R15)  returns 0x20000000 (0001ms, 0391ms total)
T305C 000:887 JLINK_ClrBPEx(BPHandle = 0x00000007)  returns 0x00 (0000ms, 0391ms total)
T305C 000:887 JLINK_ReadReg(R0)  returns 0x00000000 (0000ms, 0391ms total)
T305C 000:888 JLINK_WriteMem(0x20000164, 0x0400 Bytes, ...) -- Data:  00 28 00 DD 10 BD 1F 48 00 78 00 28 00 DD F9 E7 ... >0x31C0 JTAG>  returns 0x400 (0010ms, 0401ms total)
T305C 000:898 JLINK_WriteReg(R0, 0x08000C00)  returns 0x00 (0000ms, 0401ms total)
T305C 000:898 JLINK_WriteReg(R1, 0x00000400)  returns 0x00 (0000ms, 0401ms total)
T305C 000:898 JLINK_WriteReg(R2, 0x20000164)  returns 0x00 (0000ms, 0401ms total)
T305C 000:898 JLINK_WriteReg(R3, 0x00000000)  returns 0x00 (0000ms, 0401ms total)
T305C 000:898 JLINK_WriteReg(R4, 0x00000000)  returns 0x00 (0000ms, 0401ms total)
T305C 000:898 JLINK_WriteReg(R5, 0x00000000)  returns 0x00 (0000ms, 0401ms total)
T305C 000:898 JLINK_WriteReg(R6, 0x00000000)  returns 0x00 (0000ms, 0401ms total)
T305C 000:898 JLINK_WriteReg(R7, 0x00000000)  returns 0x00 (0000ms, 0401ms total)
T305C 000:898 JLINK_WriteReg(R8, 0x00000000)  returns 0x00 (0000ms, 0401ms total)
T305C 000:898 JLINK_WriteReg(R9, 0x20000160)  returns 0x00 (0000ms, 0401ms total)
T305C 000:898 JLINK_WriteReg(R10, 0x00000000)  returns 0x00 (0001ms, 0402ms total)
T305C 000:899 JLINK_WriteReg(R11, 0x00000000)  returns 0x00 (0000ms, 0402ms total)
T305C 000:899 JLINK_WriteReg(R12, 0x00000000)  returns 0x00 (0000ms, 0402ms total)
T305C 000:899 JLINK_WriteReg(R13, 0x20001000)  returns 0x00 (0000ms, 0402ms total)
T305C 000:899 JLINK_WriteReg(R14, 0x20000001)  returns 0x00 (0000ms, 0402ms total)
T305C 000:899 JLINK_WriteReg(R15, 0x200000F4)  returns 0x00 (0000ms, 0402ms total)
T305C 000:899 JLINK_WriteReg(XPSR, 0x01000000)  returns 0x00 (0000ms, 0402ms total)
T305C 000:899 JLINK_WriteReg(MSP, 0x20001000)  returns 0x00 (0000ms, 0402ms total)
T305C 000:899 JLINK_WriteReg(PSP, 0x20001000)  returns 0x00 (0000ms, 0402ms total)
T305C 000:899 JLINK_WriteReg(CFBP, 0x00000000)  returns 0x00 (0000ms, 0402ms total)
T305C 000:899 JLINK_SetBPEx(Addr = 0x20000000, Type = 0xFFFFFFF2)  returns 0x00000008 (0000ms, 0402ms total)
T305C 000:899 JLINK_Go() >0x310 JTAG> >0x218 JTAG> >0x218 JTAG> >0x218 JTAG> >0x218 JTAG> >0x218 JTAG> >0x240 JTAG> >0x240 JTAG> (0007ms, 0409ms total)
T305C 000:906 JLINK_IsHalted() >0x198 JTAG>  returns FALSE (0001ms, 0410ms total)
T305C 000:913 JLINK_IsHalted() >0x198 JTAG>  returns FALSE (0001ms, 0410ms total)
T305C 000:916 JLINK_IsHalted() >0x198 JTAG>  returns FALSE (0000ms, 0409ms total)
T305C 000:918 JLINK_IsHalted() >0x198 JTAG>  returns FALSE (0000ms, 0409ms total)
T305C 000:932 JLINK_IsHalted() >0x198 JTAG>  returns FALSE (0000ms, 0409ms total)
T305C 000:934 JLINK_IsHalted() >0x198 JTAG>  returns FALSE (0000ms, 0409ms total)
T305C 000:976 JLINK_IsHalted() >0x198 JTAG> >0x17A8 JTAG> >0x1F0 JTAG>  returns TRUE (0006ms, 0415ms total)
T305C 000:982 JLINK_ReadReg(R15)  returns 0x20000000 (0000ms, 0409ms total)
T305C 000:982 JLINK_ClrBPEx(BPHandle = 0x00000008)  returns 0x00 (0000ms, 0409ms total)
T305C 000:982 JLINK_ReadReg(R0)  returns 0x00000000 (0000ms, 0409ms total)
T305C 000:983 JLINK_WriteMem(0x20000164, 0x0400 Bytes, ...) -- Data:  B0 FB F1 F5 25 B9 1C 48 00 68 0A 21 B0 FB F1 F5 ... >0x31C0 JTAG>  returns 0x400 (0011ms, 0420ms total)
T305C 000:994 JLINK_WriteReg(R0, 0x08001000)  returns 0x00 (0000ms, 0420ms total)
T305C 000:994 JLINK_WriteReg(R1, 0x00000400)  returns 0x00 (0000ms, 0420ms total)
T305C 000:994 JLINK_WriteReg(R2, 0x20000164)  returns 0x00 (0000ms, 0420ms total)
T305C 000:994 JLINK_WriteReg(R3, 0x00000000)  returns 0x00 (0000ms, 0420ms total)
T305C 000:994 JLINK_WriteReg(R4, 0x00000000)  returns 0x00 (0000ms, 0420ms total)
T305C 000:994 JLINK_WriteReg(R5, 0x00000000)  returns 0x00 (0000ms, 0420ms total)
T305C 000:994 JLINK_WriteReg(R6, 0x00000000)  returns 0x00 (0000ms, 0420ms total)
T305C 000:994 JLINK_WriteReg(R7, 0x00000000)  returns 0x00 (0000ms, 0420ms total)
T305C 000:994 JLINK_WriteReg(R8, 0x00000000)  returns 0x00 (0000ms, 0420ms total)
T305C 000:994 JLINK_WriteReg(R9, 0x20000160)  returns 0x00 (0001ms, 0421ms total)
T305C 000:995 JLINK_WriteReg(R10, 0x00000000)  returns 0x00 (0000ms, 0421ms total)
T305C 000:995 JLINK_WriteReg(R11, 0x00000000)  returns 0x00 (0000ms, 0421ms total)
T305C 000:995 JLINK_WriteReg(R12, 0x00000000)  returns 0x00 (0000ms, 0421ms total)
T305C 000:995 JLINK_WriteReg(R13, 0x20001000)  returns 0x00 (0000ms, 0421ms total)
T305C 000:995 JLINK_WriteReg(R14, 0x20000001)  returns 0x00 (0000ms, 0421ms total)
T305C 000:995 JLINK_WriteReg(R15, 0x200000F4)  returns 0x00 (0000ms, 0421ms total)
T305C 000:995 JLINK_WriteReg(XPSR, 0x01000000)  returns 0x00 (0000ms, 0421ms total)
T305C 000:995 JLINK_WriteReg(MSP, 0x20001000)  returns 0x00 (0000ms, 0421ms total)
T305C 000:995 JLINK_WriteReg(PSP, 0x20001000)  returns 0x00 (0000ms, 0421ms total)
T305C 000:995 JLINK_WriteReg(CFBP, 0x00000000)  returns 0x00 (0000ms, 0421ms total)
T305C 000:995 JLINK_SetBPEx(Addr = 0x20000000, Type = 0xFFFFFFF2)  returns 0x00000009 (0000ms, 0421ms total)
T305C 000:995 JLINK_Go() >0x310 JTAG> >0x218 JTAG> >0x218 JTAG> >0x218 JTAG> >0x218 JTAG> >0x218 JTAG> >0x240 JTAG> >0x240 JTAG> (0007ms, 0428ms total)
T305C 001:002 JLINK_IsHalted() >0x198 JTAG>  returns FALSE (0001ms, 0429ms total)
T305C 001:010 JLINK_IsHalted() >0x198 JTAG>  returns FALSE (0000ms, 0428ms total)
T305C 001:012 JLINK_IsHalted() >0x198 JTAG>  returns FALSE (0000ms, 0428ms total)
T305C 001:014 JLINK_IsHalted() >0x198 JTAG>  returns FALSE (0000ms, 0428ms total)
T305C 001:018 JLINK_IsHalted() >0x198 JTAG>  returns FALSE (0000ms, 0428ms total)
T305C 001:020 JLINK_IsHalted() >0x198 JTAG>  returns FALSE (0000ms, 0428ms total)
T305C 001:022 JLINK_IsHalted() >0x198 JTAG>  returns FALSE (0000ms, 0428ms total)
T305C 001:026 JLINK_IsHalted() >0x198 JTAG>  returns FALSE (0000ms, 0428ms total)
T305C 001:028 JLINK_IsHalted() >0x198 JTAG>  returns FALSE (0000ms, 0428ms total)
T305C 001:036 JLINK_IsHalted() >0x198 JTAG> >0x17A8 JTAG> >0x1F0 JTAG>  returns TRUE (0006ms, 0434ms total)
T305C 001:042 JLINK_ReadReg(R15)  returns 0x20000000 (0000ms, 0428ms total)
T305C 001:042 JLINK_ClrBPEx(BPHandle = 0x00000009)  returns 0x00 (0001ms, 0429ms total)
T305C 001:043 JLINK_ReadReg(R0)  returns 0x00000000 (0000ms, 0429ms total)
T305C 001:043 JLINK_WriteMem(0x20000164, 0x0400 Bytes, ...) -- Data:  A5 FE 5E E0 5D E0 00 BF 20 46 03 F0 21 FA 58 E0 ... >0x31C0 JTAG>  returns 0x400 (0011ms, 0440ms total)
T305C 001:054 JLINK_WriteReg(R0, 0x08001400)  returns 0x00 (0000ms, 0440ms total)
T305C 001:054 JLINK_WriteReg(R1, 0x00000400)  returns 0x00 (0000ms, 0440ms total)
T305C 001:054 JLINK_WriteReg(R2, 0x20000164)  returns 0x00 (0000ms, 0440ms total)
T305C 001:054 JLINK_WriteReg(R3, 0x00000000)  returns 0x00 (0000ms, 0440ms total)
T305C 001:054 JLINK_WriteReg(R4, 0x00000000)  returns 0x00 (0000ms, 0440ms total)
T305C 001:054 JLINK_WriteReg(R5, 0x00000000)  returns 0x00 (0000ms, 0440ms total)
T305C 001:054 JLINK_WriteReg(R6, 0x00000000)  returns 0x00 (0000ms, 0440ms total)
T305C 001:054 JLINK_WriteReg(R7, 0x00000000)  returns 0x00 (0000ms, 0440ms total)
T305C 001:054 JLINK_WriteReg(R8, 0x00000000)  returns 0x00 (0001ms, 0441ms total)
T305C 001:055 JLINK_WriteReg(R9, 0x20000160)  returns 0x00 (0000ms, 0441ms total)
T305C 001:055 JLINK_WriteReg(R10, 0x00000000)  returns 0x00 (0000ms, 0441ms total)
T305C 001:055 JLINK_WriteReg(R11, 0x00000000)  returns 0x00 (0000ms, 0441ms total)
T305C 001:055 JLINK_WriteReg(R12, 0x00000000)  returns 0x00 (0000ms, 0441ms total)
T305C 001:055 JLINK_WriteReg(R13, 0x20001000)  returns 0x00 (0000ms, 0441ms total)
T305C 001:055 JLINK_WriteReg(R14, 0x20000001)  returns 0x00 (0000ms, 0441ms total)
T305C 001:055 JLINK_WriteReg(R15, 0x200000F4)  returns 0x00 (0000ms, 0441ms total)
T305C 001:055 JLINK_WriteReg(XPSR, 0x01000000)  returns 0x00 (0000ms, 0441ms total)
T305C 001:055 JLINK_WriteReg(MSP, 0x20001000)  returns 0x00 (0000ms, 0441ms total)
T305C 001:055 JLINK_WriteReg(PSP, 0x20001000)  returns 0x00 (0000ms, 0441ms total)
T305C 001:055 JLINK_WriteReg(CFBP, 0x00000000)  returns 0x00 (0000ms, 0441ms total)
T305C 001:055 JLINK_SetBPEx(Addr = 0x20000000, Type = 0xFFFFFFF2)  returns 0x0000000A (0000ms, 0441ms total)
T305C 001:055 JLINK_Go() >0x310 JTAG> >0x218 JTAG> >0x218 JTAG> >0x218 JTAG> >0x218 JTAG> >0x218 JTAG> >0x240 JTAG> >0x240 JTAG> (0007ms, 0448ms total)
T305C 001:062 JLINK_IsHalted() >0x198 JTAG>  returns FALSE (0001ms, 0449ms total)
T305C 001:095 JLINK_IsHalted() >0x198 JTAG> >0x17A8 JTAG> >0x1F0 JTAG>  returns TRUE (0006ms, 0454ms total)
T305C 001:101 JLINK_ReadReg(R15)  returns 0x20000000 (0000ms, 0448ms total)
T305C 001:101 JLINK_ClrBPEx(BPHandle = 0x0000000A)  returns 0x00 (0000ms, 0448ms total)
T305C 001:101 JLINK_ReadReg(R0)  returns 0x00000000 (0000ms, 0448ms total)
T305C 001:102 JLINK_WriteMem(0x20000164, 0x0400 Bytes, ...) -- Data:  A8 00 00 20 28 80 13 E0 1C B1 12 48 00 68 00 6C ... >0x31C0 JTAG>  returns 0x400 (0010ms, 0458ms total)
T305C 001:112 JLINK_WriteReg(R0, 0x08001800)  returns 0x00 (0000ms, 0458ms total)
T305C 001:113 JLINK_WriteReg(R1, 0x00000400)  returns 0x00 (0000ms, 0459ms total)
T305C 001:113 JLINK_WriteReg(R2, 0x20000164)  returns 0x00 (0000ms, 0459ms total)
T305C 001:113 JLINK_WriteReg(R3, 0x00000000)  returns 0x00 (0000ms, 0459ms total)
T305C 001:113 JLINK_WriteReg(R4, 0x00000000)  returns 0x00 (0000ms, 0459ms total)
T305C 001:113 JLINK_WriteReg(R5, 0x00000000)  returns 0x00 (0000ms, 0459ms total)
T305C 001:113 JLINK_WriteReg(R6, 0x00000000)  returns 0x00 (0000ms, 0459ms total)
T305C 001:113 JLINK_WriteReg(R7, 0x00000000)  returns 0x00 (0000ms, 0459ms total)
T305C 001:113 JLINK_WriteReg(R8, 0x00000000)  returns 0x00 (0000ms, 0459ms total)
T305C 001:113 JLINK_WriteReg(R9, 0x20000160)  returns 0x00 (0000ms, 0459ms total)
T305C 001:113 JLINK_WriteReg(R10, 0x00000000)  returns 0x00 (0000ms, 0459ms total)
T305C 001:113 JLINK_WriteReg(R11, 0x00000000)  returns 0x00 (0000ms, 0459ms total)
T305C 001:113 JLINK_WriteReg(R12, 0x00000000)  returns 0x00 (0000ms, 0459ms total)
T305C 001:113 JLINK_WriteReg(R13, 0x20001000)  returns 0x00 (0000ms, 0459ms total)
T305C 001:113 JLINK_WriteReg(R14, 0x20000001)  returns 0x00 (0000ms, 0459ms total)
T305C 001:113 JLINK_WriteReg(R15, 0x200000F4)  returns 0x00 (0000ms, 0459ms total)
T305C 001:113 JLINK_WriteReg(XPSR, 0x01000000)  returns 0x00 (0001ms, 0460ms total)
T305C 001:114 JLINK_WriteReg(MSP, 0x20001000)  returns 0x00 (0000ms, 0460ms total)
T305C 001:114 JLINK_WriteReg(PSP, 0x20001000)  returns 0x00 (0000ms, 0460ms total)
T305C 001:114 JLINK_WriteReg(CFBP, 0x00000000)  returns 0x00 (0000ms, 0460ms total)
T305C 001:114 JLINK_SetBPEx(Addr = 0x20000000, Type = 0xFFFFFFF2)  returns 0x0000000B (0000ms, 0460ms total)
T305C 001:114 JLINK_Go() >0x310 JTAG> >0x218 JTAG> >0x218 JTAG> >0x218 JTAG> >0x218 JTAG> >0x218 JTAG> >0x240 JTAG> >0x240 JTAG> (0006ms, 0466ms total)
T305C 001:120 JLINK_IsHalted() >0x198 JTAG>  returns FALSE (0001ms, 0467ms total)
T305C 001:129 JLINK_IsHalted() >0x198 JTAG>  returns FALSE (0000ms, 0466ms total)
T305C 001:131 JLINK_IsHalted() >0x198 JTAG>  returns FALSE (0000ms, 0466ms total)
T305C 001:133 JLINK_IsHalted() >0x198 JTAG>  returns FALSE (0000ms, 0466ms total)
T305C 001:143 JLINK_IsHalted() >0x198 JTAG>  returns FALSE (0000ms, 0466ms total)
T305C 001:147 JLINK_IsHalted() >0x198 JTAG>  returns FALSE (0000ms, 0466ms total)
T305C 001:149 JLINK_IsHalted() >0x198 JTAG>  returns FALSE (0000ms, 0466ms total)
T305C 001:153 JLINK_IsHalted() >0x198 JTAG> >0x17A8 JTAG> >0x1F0 JTAG>  returns TRUE (0006ms, 0472ms total)
T305C 001:159 JLINK_ReadReg(R15)  returns 0x20000000 (0000ms, 0466ms total)
T305C 001:159 JLINK_ClrBPEx(BPHandle = 0x0000000B)  returns 0x00 (0000ms, 0466ms total)
T305C 001:159 JLINK_ReadReg(R0)  returns 0x00000000 (0000ms, 0466ms total)
T305C 001:160 JLINK_WriteMem(0x20000164, 0x0400 Bytes, ...) -- Data:  00 BF 00 BF FE F7 B4 FA 07 46 00 BF FE F7 A6 FC ... >0x31C0 JTAG>  returns 0x400 (0011ms, 0477ms total)
T305C 001:171 JLINK_WriteReg(R0, 0x08001C00)  returns 0x00 (0000ms, 0477ms total)
T305C 001:171 JLINK_WriteReg(R1, 0x00000400)  returns 0x00 (0000ms, 0477ms total)
T305C 001:171 JLINK_WriteReg(R2, 0x20000164)  returns 0x00 (0000ms, 0477ms total)
T305C 001:171 JLINK_WriteReg(R3, 0x00000000)  returns 0x00 (0000ms, 0477ms total)
T305C 001:171 JLINK_WriteReg(R4, 0x00000000)  returns 0x00 (0000ms, 0477ms total)
T305C 001:171 JLINK_WriteReg(R5, 0x00000000)  returns 0x00 (0000ms, 0477ms total)
T305C 001:171 JLINK_WriteReg(R6, 0x00000000)  returns 0x00 (0000ms, 0477ms total)
T305C 001:171 JLINK_WriteReg(R7, 0x00000000)  returns 0x00 (0000ms, 0477ms total)
T305C 001:171 JLINK_WriteReg(R8, 0x00000000)  returns 0x00 (0000ms, 0477ms total)
T305C 001:172 JLINK_WriteReg(R9, 0x20000160)  returns 0x00 (0000ms, 0478ms total)
T305C 001:172 JLINK_WriteReg(R10, 0x00000000)  returns 0x00 (0000ms, 0478ms total)
T305C 001:172 JLINK_WriteReg(R11, 0x00000000)  returns 0x00 (0000ms, 0478ms total)
T305C 001:172 JLINK_WriteReg(R12, 0x00000000)  returns 0x00 (0000ms, 0478ms total)
T305C 001:172 JLINK_WriteReg(R13, 0x20001000)  returns 0x00 (0000ms, 0478ms total)
T305C 001:172 JLINK_WriteReg(R14, 0x20000001)  returns 0x00 (0000ms, 0478ms total)
T305C 001:172 JLINK_WriteReg(R15, 0x200000F4)  returns 0x00 (0000ms, 0478ms total)
T305C 001:172 JLINK_WriteReg(XPSR, 0x01000000)  returns 0x00 (0000ms, 0478ms total)
T305C 001:172 JLINK_WriteReg(MSP, 0x20001000)  returns 0x00 (0000ms, 0478ms total)
T305C 001:172 JLINK_WriteReg(PSP, 0x20001000)  returns 0x00 (0000ms, 0478ms total)
T305C 001:172 JLINK_WriteReg(CFBP, 0x00000000)  returns 0x00 (0000ms, 0478ms total)
T305C 001:172 JLINK_SetBPEx(Addr = 0x20000000, Type = 0xFFFFFFF2)  returns 0x0000000C (0000ms, 0478ms total)
T305C 001:172 JLINK_Go() >0x310 JTAG> >0x218 JTAG> >0x218 JTAG> >0x218 JTAG> >0x218 JTAG> >0x218 JTAG> >0x240 JTAG> >0x240 JTAG> (0008ms, 0486ms total)
T305C 001:180 JLINK_IsHalted() >0x198 JTAG>  returns FALSE (0000ms, 0486ms total)
T305C 001:220 JLINK_IsHalted() >0x198 JTAG> >0x17A8 JTAG> >0x1F0 JTAG>  returns TRUE (0007ms, 0493ms total)
T305C 001:227 JLINK_ReadReg(R15)  returns 0x20000000 (0000ms, 0486ms total)
T305C 001:227 JLINK_ClrBPEx(BPHandle = 0x0000000C)  returns 0x00 (0000ms, 0486ms total)
T305C 001:227 JLINK_ReadReg(R0)  returns 0x00000000 (0000ms, 0486ms total)
T305C 001:228 JLINK_WriteMem(0x20000164, 0x0400 Bytes, ...) -- Data:  78 52 00 08 79 52 00 08 7A 52 00 08 7C 52 00 08 ... >0x31C0 JTAG>  returns 0x400 (0010ms, 0496ms total)
T305C 001:238 JLINK_WriteReg(R0, 0x08002000)  returns 0x00 (0000ms, 0496ms total)
T305C 001:238 JLINK_WriteReg(R1, 0x00000400)  returns 0x00 (0000ms, 0496ms total)
T305C 001:238 JLINK_WriteReg(R2, 0x20000164)  returns 0x00 (0000ms, 0496ms total)
T305C 001:238 JLINK_WriteReg(R3, 0x00000000)  returns 0x00 (0000ms, 0496ms total)
T305C 001:238 JLINK_WriteReg(R4, 0x00000000)  returns 0x00 (0001ms, 0497ms total)
T305C 001:239 JLINK_WriteReg(R5, 0x00000000)  returns 0x00 (0000ms, 0497ms total)
T305C 001:239 JLINK_WriteReg(R6, 0x00000000)  returns 0x00 (0000ms, 0497ms total)
T305C 001:239 JLINK_WriteReg(R7, 0x00000000)  returns 0x00 (0000ms, 0497ms total)
T305C 001:239 JLINK_WriteReg(R8, 0x00000000)  returns 0x00 (0000ms, 0497ms total)
T305C 001:239 JLINK_WriteReg(R9, 0x20000160)  returns 0x00 (0000ms, 0497ms total)
T305C 001:239 JLINK_WriteReg(R10, 0x00000000)  returns 0x00 (0000ms, 0497ms total)
T305C 001:239 JLINK_WriteReg(R11, 0x00000000)  returns 0x00 (0000ms, 0497ms total)
T305C 001:239 JLINK_WriteReg(R12, 0x00000000)  returns 0x00 (0000ms, 0497ms total)
T305C 001:239 JLINK_WriteReg(R13, 0x20001000)  returns 0x00 (0000ms, 0497ms total)
T305C 001:239 JLINK_WriteReg(R14, 0x20000001)  returns 0x00 (0000ms, 0497ms total)
T305C 001:239 JLINK_WriteReg(R15, 0x200000F4)  returns 0x00 (0000ms, 0497ms total)
T305C 001:239 JLINK_WriteReg(XPSR, 0x01000000)  returns 0x00 (0000ms, 0497ms total)
T305C 001:239 JLINK_WriteReg(MSP, 0x20001000)  returns 0x00 (0000ms, 0497ms total)
T305C 001:239 JLINK_WriteReg(PSP, 0x20001000)  returns 0x00 (0000ms, 0497ms total)
T305C 001:239 JLINK_WriteReg(CFBP, 0x00000000)  returns 0x00 (0000ms, 0497ms total)
T305C 001:239 JLINK_SetBPEx(Addr = 0x20000000, Type = 0xFFFFFFF2)  returns 0x0000000D (0000ms, 0497ms total)
T305C 001:239 JLINK_Go() >0x310 JTAG> >0x218 JTAG> >0x218 JTAG> >0x218 JTAG> >0x218 JTAG> >0x218 JTAG> >0x240 JTAG> >0x240 JTAG> (0007ms, 0504ms total)
T305C 001:246 JLINK_IsHalted() >0x198 JTAG>  returns FALSE (0001ms, 0505ms total)
T305C 001:258 JLINK_IsHalted() >0x198 JTAG>  returns FALSE (0001ms, 0505ms total)
T305C 001:261 JLINK_IsHalted() >0x198 JTAG>  returns FALSE (0000ms, 0504ms total)
T305C 001:294 JLINK_IsHalted() >0x198 JTAG> >0x17A8 JTAG> >0x1F0 JTAG>  returns TRUE (0007ms, 0511ms total)
T305C 001:301 JLINK_ReadReg(R15)  returns 0x20000000 (0000ms, 0504ms total)
T305C 001:301 JLINK_ClrBPEx(BPHandle = 0x0000000D)  returns 0x00 (0000ms, 0504ms total)
T305C 001:301 JLINK_ReadReg(R0)  returns 0x00000000 (0000ms, 0504ms total)
T305C 001:301 JLINK_WriteMem(0x20000164, 0x0400 Bytes, ...) -- Data:  0A 48 00 68 40 1C 09 49 08 60 09 48 00 68 40 1C ... >0x31C0 JTAG>  returns 0x400 (0010ms, 0514ms total)
T305C 001:311 JLINK_WriteReg(R0, 0x08002400)  returns 0x00 (0000ms, 0514ms total)
T305C 001:311 JLINK_WriteReg(R1, 0x00000400)  returns 0x00 (0000ms, 0514ms total)
T305C 001:311 JLINK_WriteReg(R2, 0x20000164)  returns 0x00 (0001ms, 0515ms total)
T305C 001:312 JLINK_WriteReg(R3, 0x00000000)  returns 0x00 (0000ms, 0515ms total)
T305C 001:312 JLINK_WriteReg(R4, 0x00000000)  returns 0x00 (0000ms, 0515ms total)
T305C 001:312 JLINK_WriteReg(R5, 0x00000000)  returns 0x00 (0000ms, 0515ms total)
T305C 001:312 JLINK_WriteReg(R6, 0x00000000)  returns 0x00 (0000ms, 0515ms total)
T305C 001:312 JLINK_WriteReg(R7, 0x00000000)  returns 0x00 (0000ms, 0515ms total)
T305C 001:312 JLINK_WriteReg(R8, 0x00000000)  returns 0x00 (0000ms, 0515ms total)
T305C 001:312 JLINK_WriteReg(R9, 0x20000160)  returns 0x00 (0000ms, 0515ms total)
T305C 001:312 JLINK_WriteReg(R10, 0x00000000)  returns 0x00 (0000ms, 0515ms total)
T305C 001:312 JLINK_WriteReg(R11, 0x00000000)  returns 0x00 (0000ms, 0515ms total)
T305C 001:312 JLINK_WriteReg(R12, 0x00000000)  returns 0x00 (0000ms, 0515ms total)
T305C 001:312 JLINK_WriteReg(R13, 0x20001000)  returns 0x00 (0000ms, 0515ms total)
T305C 001:312 JLINK_WriteReg(R14, 0x20000001)  returns 0x00 (0000ms, 0515ms total)
T305C 001:312 JLINK_WriteReg(R15, 0x200000F4)  returns 0x00 (0000ms, 0515ms total)
T305C 001:312 JLINK_WriteReg(XPSR, 0x01000000)  returns 0x00 (0000ms, 0515ms total)
T305C 001:312 JLINK_WriteReg(MSP, 0x20001000)  returns 0x00 (0000ms, 0515ms total)
T305C 001:312 JLINK_WriteReg(PSP, 0x20001000)  returns 0x00 (0000ms, 0515ms total)
T305C 001:312 JLINK_WriteReg(CFBP, 0x00000000)  returns 0x00 (0001ms, 0516ms total)
T305C 001:313 JLINK_SetBPEx(Addr = 0x20000000, Type = 0xFFFFFFF2)  returns 0x0000000E (0000ms, 0516ms total)
T305C 001:313 JLINK_Go() >0x310 JTAG> >0x218 JTAG> >0x218 JTAG> >0x218 JTAG> >0x218 JTAG> >0x218 JTAG> >0x240 JTAG> >0x240 JTAG> (0007ms, 0523ms total)
T305C 001:320 JLINK_IsHalted() >0x198 JTAG>  returns FALSE (0001ms, 0524ms total)
T305C 001:332 JLINK_IsHalted() >0x198 JTAG>  returns FALSE (0000ms, 0523ms total)
T305C 001:334 JLINK_IsHalted() >0x198 JTAG>  returns FALSE (0000ms, 0523ms total)
T305C 001:338 JLINK_IsHalted() >0x198 JTAG>  returns FALSE (0000ms, 0523ms total)
T305C 001:342 JLINK_IsHalted() >0x198 JTAG>  returns FALSE (0000ms, 0523ms total)
T305C 001:346 JLINK_IsHalted() >0x198 JTAG>  returns FALSE (0000ms, 0523ms total)
T305C 001:348 JLINK_IsHalted() >0x198 JTAG>  returns FALSE (0000ms, 0523ms total)
T305C 001:350 JLINK_IsHalted() >0x198 JTAG>  returns FALSE (0000ms, 0523ms total)
T305C 001:355 JLINK_IsHalted() >0x198 JTAG> >0x17A8 JTAG> >0x1F0 JTAG>  returns TRUE (0006ms, 0529ms total)
T305C 001:361 JLINK_ReadReg(R15)  returns 0x20000000 (0000ms, 0523ms total)
T305C 001:362 JLINK_ClrBPEx(BPHandle = 0x0000000E)  returns 0x00 (0000ms, 0523ms total)
T305C 001:362 JLINK_ReadReg(R0)  returns 0x00000000 (0000ms, 0523ms total)
T305C 001:362 JLINK_WriteMem(0x20000164, 0x0400 Bytes, ...) -- Data:  A7 E7 00 00 6C 00 00 20 B0 A0 00 20 74 00 00 20 ... >0x31C0 JTAG>  returns 0x400 (0011ms, 0534ms total)
T305C 001:373 JLINK_WriteReg(R0, 0x08002800)  returns 0x00 (0000ms, 0534ms total)
T305C 001:373 JLINK_WriteReg(R1, 0x00000400)  returns 0x00 (0000ms, 0534ms total)
T305C 001:373 JLINK_WriteReg(R2, 0x20000164)  returns 0x00 (0000ms, 0534ms total)
T305C 001:373 JLINK_WriteReg(R3, 0x00000000)  returns 0x00 (0000ms, 0534ms total)
T305C 001:373 JLINK_WriteReg(R4, 0x00000000)  returns 0x00 (0000ms, 0534ms total)
T305C 001:373 JLINK_WriteReg(R5, 0x00000000)  returns 0x00 (0000ms, 0534ms total)
T305C 001:373 JLINK_WriteReg(R6, 0x00000000)  returns 0x00 (0000ms, 0534ms total)
T305C 001:373 JLINK_WriteReg(R7, 0x00000000)  returns 0x00 (0000ms, 0534ms total)
T305C 001:374 JLINK_WriteReg(R8, 0x00000000)  returns 0x00 (0000ms, 0535ms total)
T305C 001:374 JLINK_WriteReg(R9, 0x20000160)  returns 0x00 (0000ms, 0535ms total)
T305C 001:374 JLINK_WriteReg(R10, 0x00000000)  returns 0x00 (0000ms, 0535ms total)
T305C 001:374 JLINK_WriteReg(R11, 0x00000000)  returns 0x00 (0000ms, 0535ms total)
T305C 001:374 JLINK_WriteReg(R12, 0x00000000)  returns 0x00 (0000ms, 0535ms total)
T305C 001:374 JLINK_WriteReg(R13, 0x20001000)  returns 0x00 (0000ms, 0535ms total)
T305C 001:374 JLINK_WriteReg(R14, 0x20000001)  returns 0x00 (0000ms, 0535ms total)
T305C 001:374 JLINK_WriteReg(R15, 0x200000F4)  returns 0x00 (0000ms, 0535ms total)
T305C 001:374 JLINK_WriteReg(XPSR, 0x01000000)  returns 0x00 (0000ms, 0535ms total)
T305C 001:374 JLINK_WriteReg(MSP, 0x20001000)  returns 0x00 (0000ms, 0535ms total)
T305C 001:374 JLINK_WriteReg(PSP, 0x20001000)  returns 0x00 (0000ms, 0535ms total)
T305C 001:374 JLINK_WriteReg(CFBP, 0x00000000)  returns 0x00 (0001ms, 0536ms total)
T305C 001:375 JLINK_SetBPEx(Addr = 0x20000000, Type = 0xFFFFFFF2)  returns 0x0000000F (0000ms, 0536ms total)
T305C 001:375 JLINK_Go() >0x310 JTAG> >0x218 JTAG> >0x218 JTAG> >0x218 JTAG> >0x218 JTAG> >0x218 JTAG> >0x240 JTAG> >0x240 JTAG> (0006ms, 0542ms total)
T305C 001:381 JLINK_IsHalted() >0x198 JTAG>  returns FALSE (0001ms, 0543ms total)
T305C 001:412 JLINK_IsHalted() >0x198 JTAG> >0x17A8 JTAG> >0x1F0 JTAG>  returns TRUE (0006ms, 0548ms total)
T305C 001:418 JLINK_ReadReg(R15)  returns 0x20000000 (0001ms, 0543ms total)
T305C 001:419 JLINK_ClrBPEx(BPHandle = 0x0000000F)  returns 0x00 (0000ms, 0543ms total)
T305C 001:419 JLINK_ReadReg(R0)  returns 0x00000000 (0000ms, 0543ms total)
T305C 001:420 JLINK_WriteMem(0x20000164, 0x0400 Bytes, ...) -- Data:  C1 F8 C4 50 03 E0 08 A5 C1 F8 C4 50 00 BF 00 BF ... >0x31C0 JTAG>  returns 0x400 (0011ms, 0554ms total)
T305C 001:431 JLINK_WriteReg(R0, 0x08002C00)  returns 0x00 (0000ms, 0554ms total)
T305C 001:431 JLINK_WriteReg(R1, 0x00000400)  returns 0x00 (0000ms, 0554ms total)
T305C 001:431 JLINK_WriteReg(R2, 0x20000164)  returns 0x00 (0000ms, 0554ms total)
T305C 001:431 JLINK_WriteReg(R3, 0x00000000)  returns 0x00 (0000ms, 0554ms total)
T305C 001:431 JLINK_WriteReg(R4, 0x00000000)  returns 0x00 (0000ms, 0554ms total)
T305C 001:431 JLINK_WriteReg(R5, 0x00000000)  returns 0x00 (0000ms, 0554ms total)
T305C 001:431 JLINK_WriteReg(R6, 0x00000000)  returns 0x00 (0001ms, 0555ms total)
T305C 001:432 JLINK_WriteReg(R7, 0x00000000)  returns 0x00 (0000ms, 0555ms total)
T305C 001:432 JLINK_WriteReg(R8, 0x00000000)  returns 0x00 (0000ms, 0555ms total)
T305C 001:432 JLINK_WriteReg(R9, 0x20000160)  returns 0x00 (0000ms, 0555ms total)
T305C 001:432 JLINK_WriteReg(R10, 0x00000000)  returns 0x00 (0000ms, 0555ms total)
T305C 001:432 JLINK_WriteReg(R11, 0x00000000)  returns 0x00 (0000ms, 0555ms total)
T305C 001:432 JLINK_WriteReg(R12, 0x00000000)  returns 0x00 (0000ms, 0555ms total)
T305C 001:432 JLINK_WriteReg(R13, 0x20001000)  returns 0x00 (0000ms, 0555ms total)
T305C 001:432 JLINK_WriteReg(R14, 0x20000001)  returns 0x00 (0000ms, 0555ms total)
T305C 001:432 JLINK_WriteReg(R15, 0x200000F4)  returns 0x00 (0000ms, 0555ms total)
T305C 001:432 JLINK_WriteReg(XPSR, 0x01000000)  returns 0x00 (0000ms, 0555ms total)
T305C 001:432 JLINK_WriteReg(MSP, 0x20001000)  returns 0x00 (0000ms, 0555ms total)
